 ****** HSPICE -- H-2013.03-SP2 64-BIT (Aug 26 2013) win64 ******               
  Copyright (C) 2013 Synopsys, Inc. All Rights Reserved.                        
  Unpublished-rights reserved under US copyright laws.
  This program is protected by law and is subject to the
  terms and conditions of the license agreement from Synopsys.
  Use of this program is your acceptance to be bound by the
  license agreement. HSPICE is the trademark of Synopsys, Inc.
  Input File: invcmos.sp                                                        
  Command line options: -i invcmos.sp -o invcmos.lis
  lic:  
  lic: FLEXlm: v10.9.8 
  lic: USER:   Roxy                 HOSTNAME: DESKTOP-S3BDAM1 
  lic: HOSTID: "704d7b45fe95 7cb0c27cd20f 7cb0c27cd20b 7cb0c27cd20c" PID:      7
 640 
  lic: Using FLEXlm license file: 
  lic: C:\hspice_lic\synopsys.dat 
  lic: Checkout 1 hspice 
  lic: License/Maintenance for hspice will expire on 31-dec-2019/2019.12 
  lic: NODE LOCKED license on hostid "704d7b45fe95 7cb0c27cd20f 7cb0c27cd20b 7cb
 0c27cd20c" 
  lic:   
 Init: read install configuration file: C:\synopsys\Hspice_H-2013.03-SP2\meta.cfg
  **info** (invcmos.sp:6) DC voltage reset to initial transient source value              in source        0:vin                 new dc=  0.0000D+00
 

 Warning: Pd = 0 is less than Weff = 3.31083e-007.
 Model:    0:nmos
 Element: mn1
 W = 3.5e-007, L = 1.6e-007

  
      
 *****************************************************************
 ******  option summary
 ******
 runlvl  = 3         bypass  = 2         
1****** HSPICE -- H-2013.03-SP2 64-BIT (Aug 26 2013) win64 ******               
 ******  
 

  ******  operating point information tnom=  25.000 temp=  25.000 *****
 ***** operating point status is all       simulation time is     0.     
    node    =voltage      node    =voltage      node    =voltage

 +0:a0      =   0.      0:vdd     =   1.8000  0:vout    =   1.8000 


 **** voltage sources

 subckt                        
 element  0:vdd      0:vin     
  volts      1.8000     0.     
  current  -18.1740p    0.     
  power     32.7132p    0.     

     total voltage source power dissipation=   32.7132p       watts




 **** mosfets


 subckt                        
 element  0:mp1      0:mn1     
 model    0:pmos     0:nmos    
 region       Linear     Cutoff
  id        18.1740p   14.5740p
  ibs        0.         0.     
  ibd        0.         0.     
  vgs       -1.8000     0.     
  vds       35.6425n    1.8000 
  vbs       35.6425n    0.     
  vth     -486.5355m  442.5415m
  vdsat   -931.1843m   38.9527m
  vod       -1.3135  -442.5415m
  beta     573.0636u  778.4905u
  gam eff  506.0787m  551.6500m
  gm         6.3551p  393.3465p
  gds      509.8968u    9.0453p
  gmb        2.8834p  114.5392p
  cdtot    756.6603a  242.3525a
  cgtot      2.3887f  597.3555a
  cstot      1.2937f  242.3536a
  cbtot    303.8609a  120.5011a
  cgs        1.1642f  235.6535a
  cgd        1.2287f  241.2014a



 ******  
 

  ******  transient analysis tnom=  25.000 temp=  25.000 *****
 t_rise=  37.9634p  targ=  45.1891n   trig=  45.1511n
 t_fall=  34.0872p  targ=  30.0806n   trig=  30.0465n
 tphl=  14.9823p  targ=  30.0650n   trig=  30.0500n
 tplh=  16.1067p  targ=  45.1661n   trig=  45.1500n
 charge=  -4.2184f  from=   0.          to=  30.0000n
 energy=   7.5931f

          ***** job concluded
1****** HSPICE -- H-2013.03-SP2 64-BIT (Aug 26 2013) win64 ******               
 ******  
 

  ******  job statistics summary tnom=  25.000 temp=  25.000 *****

  ******  HSPICE Threads Information  ******

  Command Line Threads Count :     1
  Available CPU Count        :     8
  Actual Threads Count       :     1


  ******  Circuit Statistics  ******
  # nodes       =       4 # elements   =       4
  # resistors   =       0 # capacitors =       0 # inductors   =       0
  # mutual_inds =       0 # vccs       =       0 # vcvs        =       0
  # cccs        =       0 # ccvs       =       0 # volt_srcs   =       2
  # curr_srcs   =       0 # diodes     =       0 # bjts        =       0
  # jfets       =       0 # mosfets    =       2 # U elements  =       0
  # T elements  =       0 # W elements =       0 # B elements  =       0
  # S elements  =       0 # P elements =       0 # va device   =       0
  # vector_srcs =       0 # N elements =       0


  ******  Runtime Statistics (seconds)  ******

  analysis           time    # points   tot. iter  conv.iter
  op point           0.05           1           8
  transient          0.01        6001         196          81 rev=         0
  readin             0.09
  errchk             0.05
  setup              0.00
  output             0.00


           peak memory used         40.42 megabytes
           total cpu time            0.23 seconds
           total elapsed time        0.38 seconds
           job started at     14:54:25 05/06/2018
           job ended   at     14:54:25 05/06/2018


  lic: Release hspice token(s) 
 lic: total license checkout elapse time:        0.04(s)
